(1655361666.743464) can0 017#F4FFF5FFE5FF
(1655361666.745825) can0 019#98F9A302A405
(1655361666.748237) can0 018#40FE88FA0BC2
(1655361666.748881) can0 008#00000000
(1655361666.749145) can0 001#0000000000000000
(1655361666.749305) can0 006#636A2F00
(1655361666.749474) can0 021#11030000
(1655361666.749835) can0 007#00CAE803
(1655361666.750300) can0 006#00000000
(1655361666.750437) can0 026#0000
(1655361666.750617) can0 002#00000000
(1655361666.750737) can0 003#00
(1655361666.750911) can0 008#00000000
(1655361666.751171) can0 001#0000000000000000
(1655361666.751391) can0 005#00000000
(1655361666.751623) can0 004#0000000000000000
(1655361666.753076) can0 017#F3FF1600FBFF
(1655361666.755498) can0 019#98F9A302A405
(1655361666.757903) can0 018#7BFE62FA31C2
(1655361666.758853) can0 021#11030000
(1655361666.759027) can0 008#00000000
(1655361666.759284) can0 001#0000000000000000
(1655361666.759502) can0 016#00
(1655361666.759559) can0 006#636A2F00
(1655361666.759687) can0 015#00
(1655361666.760186) can0 006#00000000
(1655361666.760357) can0 002#00000000
(1655361666.760615) can0 001#0000000000000000
(1655361666.760771) can0 007#00CAE803
(1655361666.762728) can0 017#F3FF2300F9FF
(1655361666.765164) can0 019#CEF958024B05
(1655361666.767577) can0 018#55FE9DFA29C2
(1655361666.768887) can0 008#00000000
(1655361666.769170) can0 001#0000000000000000
(1655361666.769312) can0 006#636A2F00
(1655361666.769483) can0 021#11030000
(1655361666.770181) can0 006#00000000
(1655361666.770362) can0 002#00000000
(1655361666.770619) can0 001#0000000000000000
(1655361666.771539) can0 007#00CAE803
(1655361666.772429) can0 017#FCFFFDFFFCFF
(1655361666.774869) can0 019#CEF958024B05
(1655361666.777277) can0 018#44FE73FA29C2
(1655361666.778491) can0 027#0000
(1655361666.778899) can0 008#00000000
(1655361666.779163) can0 001#0000000000000000
(1655361666.779323) can0 006#636A2F00
(1655361666.779494) can0 021#11030000
(1655361666.780177) can0 002#00000000
(1655361666.780357) can0 006#00000000
(1655361666.780610) can0 001#0000000000000000
(1655361666.781918) can0 007#00CAE803
(1655361666.782221) can0 017#0700F7FFF9FF
(1655361666.784728) can0 019#CEF958024B05
(1655361666.786378) can0 024#0000
(1655361666.786513) can0 028#0000
(1655361666.787246) can0 016#000000000200
(1655361666.788875) can0 008#00000000
(1655361666.789141) can0 001#0000000000000000
(1655361666.789303) can0 006#636A2F00
(1655361666.789473) can0 021#11030000
(1655361666.789708) can0 018#4DFE6AFA71C2
(1655361666.789833) can0 029#0000
(1655361666.790188) can0 006#00000000
(1655361666.790436) can0 002#00000000
(1655361666.790704) can0 001#0000000000000000
(1655361666.792116) can0 007#00CAE803
(1655361666.792335) can0 017#F9FFF8FFFFFF
(1655361666.794732) can0 019#CEF93F028E05
(1655361666.797176) can0 018#44FEC7FA3EC2
(1655361666.798861) can0 021#11030000
(1655361666.799029) can0 008#00000000
(1655361666.799284) can0 001#0000000000000000
(1655361666.799491) can0 006#636A2F00
(1655361666.800212) can0 006#00000000
(1655361666.800374) can0 002#00000000
(1655361666.800629) can0 001#0000000000000000
(1655361666.802009) can0 017#F3FFF5FFF0FF
(1655361666.802657) can0 007#00CAE803
(1655361666.804542) can0 019#CEF93F028E05
(1655361666.806975) can0 018#84FE7BFA0FC2
(1655361666.808865) can0 006#636A2F00
(1655361666.809034) can0 008#00000000
(1655361666.809294) can0 001#0000000000000000
(1655361666.809460) can0 021#11030000
(1655361666.810190) can0 006#00000000
(1655361666.810368) can0 002#00000000
(1655361666.810627) can0 001#0000000000000000
(1655361666.813170) can0 007#00CAE803
(1655361666.814254) can0 017#F4FF0400F6FF
(1655361666.816481) can0 012#0000
(1655361666.816621) can0 022#0000
(1655361666.816832) can0 019#63F958027805
(1655361666.818753) can0 023#0000
(1655361666.818927) can0 006#636A2F00
(1655361666.819100) can0 008#00000000
(1655361666.819360) can0 001#0000000000000000
(1655361666.819558) can0 018#5EFE99FA35C2
(1655361666.819725) can0 021#11030000
(1655361666.820185) can0 006#00000000
(1655361666.820364) can0 002#00000000
(1655361666.820625) can0 001#0000000000000000
(1655361666.821817) can0 011#D908A00FBB08
(1655361666.822101) can0 031#21014B01730B
(1655361666.823256) can0 007#00CAE803
(1655361666.824043) can0 017#FDFFEFFFF1FF
(1655361666.826429) can0 019#63F958027805
(1655361666.828846) can0 018#73FE77FA6CC2
(1655361666.829000) can0 008#00000000
(1655361666.829263) can0 001#0000000000000000
(1655361666.829422) can0 006#636A2F00
(1655361666.829601) can0 021#11030000
(1655361666.830198) can0 006#00000000
(1655361666.830373) can0 002#00000000
(1655361666.830635) can0 001#0000000000000000
(1655361666.833635) can0 017#11002500FBFF
(1655361666.834350) can0 007#00CAE803
(1655361666.836092) can0 019#98F90D02E705
(1655361666.838529) can0 018#88FE83FA8EC2
(1655361666.838947) can0 008#00000000
(1655361666.839210) can0 001#0000000000000000
(1655361666.839372) can0 006#636A2F00
(1655361666.839545) can0 021#11030000
(1655361666.840183) can0 006#00000000
(1655361666.840363) can0 002#00000000
(1655361666.840620) can0 001#0000000000000000
(1655361666.843320) can0 017#F3FF0E00E5FF
(1655361666.844581) can0 007#00CAE803
(1655361666.845803) can0 019#98F90D02E705
(1655361666.848259) can0 018#7BFEB6FA57C2
(1655361666.848874) can0 008#00000000
(1655361666.849139) can0 001#0000000000000000
(1655361666.849301) can0 006#636A2F00
(1655361666.849471) can0 021#11030000
(1655361666.850184) can0 006#00000000
(1655361666.850322) can0 026#0000
(1655361666.850502) can0 002#00000000
(1655361666.850622) can0 003#00
(1655361666.850796) can0 008#00000000
(1655361666.851055) can0 001#0000000000000000
(1655361666.851229) can0 005#00000000
(1655361666.851485) can0 004#0000000000000000
(1655361666.853111) can0 017#05001C00E5FF
(1655361666.855013) can0 007#00CAE803
(1655361666.855630) can0 019#3BF9E7018305
(1655361666.858073) can0 018#40FE88FA46C2
(1655361666.858804) can0 015#00
(1655361666.859002) can0 008#00000000
(1655361666.859269) can0 001#0000000000000000
(1655361666.859400) can0 016#00
(1655361666.859546) can0 006#636A2F00
(1655361666.859714) can0 021#11030000
(1655361666.860184) can0 006#00000000
(1655361666.860366) can0 002#00000000
(1655361666.860623) can0 001#0000000000000000
(1655361666.862891) can0 017#F9FFF6FFEAFF
(1655361666.865337) can0 019#3BF9E7018305
(1655361666.865492) can0 007#00CAE803
(1655361666.867819) can0 018#9DFEA5FA0FC2
(1655361666.868892) can0 008#00000000
(1655361666.869144) can0 001#0000000000000000
(1655361666.869307) can0 006#636A2F00
(1655361666.869476) can0 021#11030000
(1655361666.870189) can0 006#00000000
(1655361666.870369) can0 002#00000000
(1655361666.870626) can0 001#0000000000000000
(1655361666.872708) can0 017#D2FF03001100
(1655361666.875166) can0 019#3BF9E7018305
(1655361666.875690) can0 007#00CAE803
(1655361666.877632) can0 018#48FE8CFAE3C2
(1655361666.878881) can0 008#00000000
(1655361666.879147) can0 001#0000000000000000
(1655361666.879306) can0 006#636A2F00
(1655361666.879474) can0 021#11030000
(1655361666.879599) can0 027#0000
(1655361666.880183) can0 006#00000000
(1655361666.880362) can0 002#00000000
(1655361666.880620) can0 001#0000000000000000
(1655361666.882668) can0 017#1A00F1FFDBFF
(1655361666.885120) can0 019#56F9E701DC05
(1655361666.885889) can0 007#00CAE803
(1655361666.887020) can0 024#0000
(1655361666.887158) can0 028#0000
(1655361666.887613) can0 016#000000000200
(1655361666.888872) can0 008#00000000
(1655361666.889136) can0 001#0000000000000000
(1655361666.889298) can0 006#636A2F00
(1655361666.889467) can0 021#11030000
(1655361666.890113) can0 018#77FE66FA79C2
(1655361666.890291) can0 002#00000000
(1655361666.890467) can0 006#00000000
(1655361666.890595) can0 029#0000
(1655361666.890866) can0 001#0000000000000000
(1655361666.892632) can0 017#F6FF1D00F8FF
(1655361666.895081) can0 019#56F9E701DC05
(1655361666.896037) can0 007#00CAE803
(1655361666.897587) can0 018#77FE94FAB0C2
(1655361666.898990) can0 001#0000000000000000
(1655361666.899157) can0 008#00000000
(1655361666.899321) can0 006#636A2F00
(1655361666.899496) can0 021#11030000
(1655361666.900188) can0 006#00000000
(1655361666.900368) can0 002#00000000
(1655361666.900626) can0 001#0000000000000000
(1655361666.902513) can0 017#E2FFF1FF0A00
(1655361666.904966) can0 019#7EF95802BA05
(1655361666.906344) can0 007#00CAE803
(1655361666.907424) can0 018#55FEBAFAFEC1
(1655361666.908987) can0 001#0000000000000000
(1655361666.909156) can0 008#00000000
(1655361666.909318) can0 006#636A2F00
(1655361666.909487) can0 021#11030000
(1655361666.910183) can0 006#00000000
(1655361666.910362) can0 002#00000000
(1655361666.910629) can0 001#0000000000000000
(1655361666.912366) can0 017#01000100E2FF
(1655361666.913278) can0 011#D908A00FBB08
(1655361666.913476) can0 031#21014B01730B
(1655361666.914899) can0 019#7EF95802BA05
(1655361666.917307) can0 018#8CFE88FA0FC2
(1655361666.917465) can0 007#00CAE803
(1655361666.917603) can0 012#0000
(1655361666.917743) can0 022#0000
(1655361666.918867) can0 008#00000000
(1655361666.919135) can0 001#0000000000000000
(1655361666.919297) can0 006#636A2F00
(1655361666.919469) can0 021#11030000
(1655361666.919691) can0 023#0000
(1655361666.920180) can0 006#00000000
(1655361666.920365) can0 002#00000000
(1655361666.920633) can0 001#0000000000000000
(1655361666.922166) can0 017#0400F9FFFDFF
(1655361666.924602) can0 019#7EF95802BA05
(1655361666.927002) can0 018#40FE99FA4AC2
(1655361666.927813) can0 007#00CAE803
(1655361666.928871) can0 008#00000000
(1655361666.929136) can0 001#0000000000000000
(1655361666.929298) can0 006#636A2F00
(1655361666.929470) can0 021#11030000
(1655361666.930179) can0 006#00000000
(1655361666.930359) can0 002#00000000
(1655361666.930617) can0 001#0000000000000000
(1655361666.931874) can0 017#F4FFD1FF0000
(1655361666.934352) can0 019#EBF800029905
(1655361666.936734) can0 018#62FEB2FA71C2
(1655361666.937920) can0 007#00CAE803
(1655361666.938866) can0 008#00000000
(1655361666.939135) can0 001#0000000000000000
(1655361666.939295) can0 006#636A2F00
(1655361666.939469) can0 021#11030000
(1655361666.940177) can0 006#00000000
(1655361666.940357) can0 002#00000000
(1655361666.940615) can0 001#0000000000000000
(1655361666.943898) can0 017#F3FF2200FBFF
(1655361666.946287) can0 019#EBF800029905
(1655361666.948192) can0 007#00CAE803
(1655361666.948768) can0 018#7FFE7FFA5BC2
(1655361666.948935) can0 021#11030000
(1655361666.949107) can0 008#00000000
(1655361666.949374) can0 001#0000000000000000
(1655361666.949534) can0 006#636A2F00
(1655361666.950179) can0 006#00000000
(1655361666.950315) can0 026#0000
(1655361666.950548) can0 002#00000000
(1655361666.950612) can0 003#00
(1655361666.950791) can0 008#00000000
(1655361666.951050) can0 001#0000000000000000
(1655361666.951223) can0 005#00000000
(1655361666.951479) can0 004#0000000000000000
(1655361666.953685) can0 017#F8FF1700D5FF
(1655361666.956138) can0 019#63F971028E05
(1655361666.958544) can0 018#99FE99FA6CC2
(1655361666.958980) can0 008#00000000
(1655361666.959131) can0 007#00CAE803
(1655361666.959261) can0 016#00
(1655361666.959518) can0 001#0000000000000000
(1655361666.959680) can0 006#E8032F00
(1655361666.959849) can0 021#11030000
(1655361666.960281) can0 006#00000000
(1655361666.960461) can0 002#00000000
(1655361666.960717) can0 001#0000000000000000
(1655361666.963445) can0 017#0F002200FBFF
(1655361666.965890) can0 019#63F971028E05
(1655361666.968301) can0 018#A5FE90FA9BC2
(1655361666.968981) can0 001#0000000000000000
(1655361666.969152) can0 008#00000000
(1655361666.969316) can0 006#E8032F00
(1655361666.969474) can0 007#00CAE803
(1655361666.969655) can0 021#11030000
(1655361666.970178) can0 006#00000000
(1655361666.970358) can0 002#00000000
(1655361666.970616) can0 001#0000000000000000
(1655361666.973230) can0 017#0E001500EEFF
(1655361666.975700) can0 019#8BF983019905
(1655361666.978101) can0 018#5EFE6EFAD6C2
(1655361666.978869) can0 008#00000000
(1655361666.979133) can0 001#0000000000000000
(1655361666.979294) can0 006#E8032F00
(1655361666.979462) can0 021#11030000
(1655361666.979617) can0 007#00CAE803
(1655361666.979773) can0 027#0000
(1655361666.980197) can0 006#00000000
(1655361666.980393) can0 002#00000000
(1655361666.980641) can0 001#0000000000000000
(1655361666.984026) can0 017#C9FF1000F9FF
(1655361666.986458) can0 019#10FA7D028305
(1655361666.987535) can0 024#0000
(1655361666.987658) can0 028#0000
(1655361666.988865) can0 008#00000000
(1655361666.989078) can0 016#000000000200
(1655361666.989240) can0 006#E8032F00
(1655361666.989408) can0 021#11030000
(1655361666.989668) can0 001#0000000000000000
(1655361666.989887) can0 007#00CAE803
(1655361666.990284) can0 001#0000000000000000
(1655361666.990471) can0 006#00000000
(1655361666.990652) can0 002#00000000
(1655361666.991014) can0 029#0000
(1655361666.991406) can0 018#84FE6EFAB0C2
(1655361666.993860) can0 017#E8FF0300F0FF
(1655361666.996268) can0 019#10FA7D028305
(1655361666.998665) can0 018#16FE5DFA2DC2
(1655361666.998867) can0 008#00000000
(1655361666.999235) can0 001#0000000000000000
(1655361666.999475) can0 006#E8032F00
(1655361666.999567) can0 021#11030000
(1655361667.000095) can0 007#00CAE803
(1655361667.000379) can0 001#0000000000000000
(1655361667.000538) can0 006#00000000
(1655361667.000715) can0 002#00000000
(1655361667.001041) can0 00A#1401
(1655361667.003581) can0 017#07000900FCFF
(1655361667.005964) can0 019#7EF958024B05
(1655361667.008367) can0 018#99FE8CFA29C2
(1655361667.008866) can0 008#00000000
(1655361667.009131) can0 001#0000000000000000
(1655361667.009295) can0 006#E8032F00
(1655361667.009465) can0 021#11030000
(1655361667.010173) can0 006#00000000
(1655361667.010358) can0 002#00000000
(1655361667.010611) can0 001#0000000000000000
(1655361667.010768) can0 007#00CAE803
(1655361667.013255) can0 017#15000F00E7FF
(1655361667.013454) can0 011#DF0AA00FBB08
(1655361667.013649) can0 031#25014B01730B
(1655361667.015805) can0 019#7EF958024B05
(1655361667.018008) can0 012#0000
(1655361667.018149) can0 022#0000
(1655361667.018360) can0 018#88FE6AFA64C2
(1655361667.018840) can0 021#11030000
(1655361667.019010) can0 008#00000000
(1655361667.019269) can0 001#0000000000000000
(1655361667.019433) can0 006#E8032F00
(1655361667.020176) can0 006#00000000
(1655361667.020356) can0 002#00000000
(1655361667.020616) can0 001#0000000000000000
(1655361667.020736) can0 023#0000
(1655361667.021521) can0 007#00CAE803
(1655361667.023046) can0 017#0B001300EAFF
(1655361667.025498) can0 019#B3F9C2017805
(1655361667.027904) can0 018#66FEA1FA3EC2
(1655361667.028853) can0 006#E8032F00
(1655361667.029025) can0 008#00000000
(1655361667.029284) can0 001#0000000000000000
(1655361667.029461) can0 021#11030000
(1655361667.030173) can0 006#00000000
(1655361667.030352) can0 002#00000000
(1655361667.030615) can0 001#0000000000000000
(1655361667.031929) can0 007#00CAE803
(1655361667.032769) can0 017#EBFFF8FFD9FF
(1655361667.035229) can0 019#B3F9C2017805
(1655361667.037621) can0 018#3CFEAAFA18C2
(1655361667.038845) can0 006#E8032F00
(1655361667.039019) can0 008#00000000
(1655361667.039276) can0 001#0000000000000000
(1655361667.039444) can0 021#11030000
(1655361667.040171) can0 006#00000000
(1655361667.040349) can0 002#00000000
(1655361667.040606) can0 001#0000000000000000
(1655361667.042010) can0 007#00CAE803
(1655361667.042503) can0 017#E6FFFDFFF7FF
(1655361667.044931) can0 019#B3F9C2017805
(1655361667.047337) can0 018#D0FE77FA6CC2
(1655361667.048858) can0 006#E8032F00
(1655361667.049028) can0 008#00000000
(1655361667.049288) can0 001#0000000000000000
(1655361667.049452) can0 021#11030000
(1655361667.050174) can0 006#00000000
(1655361667.050311) can0 026#0000
(1655361667.050492) can0 002#00000000
(1655361667.050612) can0 003#00
(1655361667.050787) can0 008#00000000
(1655361667.051046) can0 001#0000000000000000
(1655361667.051218) can0 005#00000000
(1655361667.051475) can0 004#0000000000000000
(1655361667.052197) can0 017#F3FFECFFE0FF
(1655361667.052363) can0 007#00CAE803
(1655361667.054723) can0 019#7EF9EE02D005
(1655361667.057166) can0 018#51FE11FAFEC1
(1655361667.058864) can0 008#00000000
(1655361667.059127) can0 001#0000000000000000
(1655361667.059240) can0 016#00
(1655361667.059438) can0 006#636A2F00
(1655361667.059522) can0 015#00
(1655361667.059693) can0 021#11030000
(1655361667.060160) can0 002#00000000
(1655361667.060334) can0 006#00000000
(1655361667.060591) can0 001#0000000000000000
(1655361667.062002) can0 017#F9FF0A00DAFF
(1655361667.062620) can0 007#00CAE803
(1655361667.064529) can0 019#7EF9EE02D005
(1655361667.066968) can0 018#A5FEB6FA60C2
(1655361667.068855) can0 008#00000000
(1655361667.069122) can0 001#0000000000000000
(1655361667.069283) can0 006#636A2F00
(1655361667.069461) can0 021#11030000
(1655361667.070280) can0 001#0000000000000000
(1655361667.070453) can0 006#00000000
(1655361667.070634) can0 002#00000000
(1655361667.071844) can0 018#A1FE73FA68C2
(1655361667.072770) can0 007#00CAE803
(1655361667.074410) can0 017#05000E00F8FF
(1655361667.076845) can0 019#B3F926027805
(1655361667.078861) can0 008#00000000
(1655361667.079127) can0 001#0000000000000000
(1655361667.079288) can0 006#636A2F00
(1655361667.079452) can0 021#11030000
(1655361667.079686) can0 027#0000
(1655361667.080176) can0 006#00000000
(1655361667.080369) can0 002#00000000
(1655361667.080610) can0 001#0000000000000000
(1655361667.081867) can0 017#19000B00EEFF
(1655361667.083153) can0 007#00CAE803
(1655361667.084424) can0 019#B3F926027805
(1655361667.086875) can0 016#000000000200
(1655361667.088708) can0 024#0000
(1655361667.088891) can0 008#00000000
(1655361667.089147) can0 001#0000000000000000
(1655361667.089311) can0 006#636A2F00
(1655361667.089513) can0 018#5EFECBFAFEC1
(1655361667.089690) can0 021#11030000
(1655361667.089807) can0 028#0000
(1655361667.090236) can0 006#00000000
(1655361667.090416) can0 002#00000000
(1655361667.090674) can0 001#0000000000000000
(1655361667.091860) can0 017#EDFF1600F4FF
(1655361667.092199) can0 029#0000
(1655361667.093369) can0 007#00CAE803
(1655361667.094395) can0 019#B3F926027805
(1655361667.096821) can0 018#A5FE7FFA20C2
(1655361667.098869) can0 008#00000000
(1655361667.099130) can0 001#0000000000000000
(1655361667.099291) can0 006#636A2F00
(1655361667.099508) can0 021#11030000
(1655361667.100164) can0 006#00000000
(1655361667.100342) can0 002#00000000
(1655361667.100613) can0 001#0000000000000000
(1655361667.103707) can0 007#00CAE803
(1655361667.104016) can0 017#E6FF1300E7FF
(1655361667.106490) can0 019#48F971027805
(1655361667.108851) can0 008#00000000
(1655361667.109057) can0 018#5EFE7FFA20C2
(1655361667.109316) can0 001#0000000000000000
(1655361667.109483) can0 021#11030000
(1655361667.109645) can0 006#636A2F00
(1655361667.110154) can0 002#00000000
(1655361667.110332) can0 006#00000000
(1655361667.110589) can0 001#0000000000000000
(1655361667.113265) can0 011#DF0AA00FBB08
(1655361667.113458) can0 031#25014B01730B
(1655361667.113825) can0 017#0E000800F6FF
(1655361667.113982) can0 007#00CAE803
(1655361667.116313) can0 019#48F971027805
(1655361667.118414) can0 012#0000
(1655361667.118555) can0 022#0000
(1655361667.118769) can0 018#55FEA1FAC1C2
(1655361667.118960) can0 008#00000000
(1655361667.119209) can0 001#0000000000000000
(1655361667.119369) can0 006#636A2F00
(1655361667.119533) can0 021#11030000
(1655361667.120155) can0 006#00000000
(1655361667.120335) can0 002#00000000
(1655361667.120597) can0 001#0000000000000000
(1655361667.120809) can0 023#0000
(1655361667.123531) can0 017#02001300FAFF
(1655361667.124318) can0 007#00CAE803
(1655361667.125996) can0 019#06F94B029905
(1655361667.128442) can0 018#6EFE94FA13C2
(1655361667.128867) can0 008#00000000
(1655361667.129132) can0 001#0000000000000000
(1655361667.129294) can0 006#636A2F00
(1655361667.129466) can0 021#11030000
(1655361667.130272) can0 001#0000000000000000
(1655361667.130446) can0 006#00000000
(1655361667.130626) can0 002#00000000
(1655361667.133314) can0 017#0400F9FF0200
(1655361667.134720) can0 007#00CAE803
(1655361667.135823) can0 019#F8F80D02A405
(1655361667.138281) can0 018#A5FEAAFA07C2
(1655361667.138965) can0 001#0000000000000000
(1655361667.139137) can0 008#00000000
(1655361667.139304) can0 006#636A2F00
(1655361667.139472) can0 021#11030000
(1655361667.140167) can0 006#00000000
(1655361667.140349) can0 002#00000000
(1655361667.140606) can0 001#0000000000000000
(1655361667.143219) can0 017#FFFFFAFFEFFF
(1655361667.144852) can0 007#00CAE803
(1655361667.145778) can0 019#F8F80D02A405
(1655361667.148221) can0 018#51FEBAFA3EC2
(1655361667.148973) can0 001#0000000000000000
(1655361667.149143) can0 008#00000000
(1655361667.149307) can0 006#636A2F00
(1655361667.149477) can0 021#11030000
(1655361667.150171) can0 006#00000000
(1655361667.150304) can0 026#0000
(1655361667.150486) can0 002#00000000
(1655361667.150604) can0 003#00
(1655361667.150779) can0 008#00000000
(1655361667.151038) can0 001#0000000000000000
(1655361667.151212) can0 005#00000000
(1655361667.151379) can0 010#0000
(1655361667.151607) can0 004#0000000000000000
(1655361667.153128) can0 017#2C000F00F4FF
(1655361667.155583) can0 019#48F958028E05
(1655361667.155903) can0 007#00CAE803
(1655361667.158042) can0 018#59FE8CFA68C2
(1655361667.158854) can0 008#00000000
(1655361667.159116) can0 001#0000000000000000
(1655361667.159231) can0 016#00
(1655361667.159406) can0 006#636A2F00
(1655361667.159528) can0 015#00
(1655361667.159685) can0 021#11030000
(1655361667.160162) can0 006#00000000
(1655361667.160341) can0 002#00000000
(1655361667.160598) can0 001#0000000000000000
(1655361667.162935) can0 017#FEFF0400E9FF
(1655361667.165378) can0 019#48F958028E05
(1655361667.167172) can0 007#00CAE803
(1655361667.167871) can0 018#88FEA1FA64C2
(1655361667.168859) can0 006#636A2F00
(1655361667.169015) can0 008#00000000
(1655361667.169279) can0 001#0000000000000000
(1655361667.169439) can0 021#11030000
(1655361667.170193) can0 006#00000000
(1655361667.170345) can0 002#00000000
(1655361667.170601) can0 001#0000000000000000
(1655361667.172769) can0 017#04000C00E9FF
(1655361667.175208) can0 019#98F958027805
(1655361667.177616) can0 018#73FE9DFA2DC2
(1655361667.177782) can0 007#00CAE803
(1655361667.178851) can0 008#00000000
(1655361667.179117) can0 001#0000000000000000
(1655361667.179276) can0 006#636A2F00
(1655361667.179445) can0 021#11030000
(1655361667.180163) can0 006#00000000
(1655361667.180340) can0 002#00000000
(1655361667.180600) can0 001#0000000000000000
(1655361667.180718) can0 027#0000
(1655361667.182612) can0 017#F0FFF9FFE6FF
(1655361667.185071) can0 019#98F958027805
(1655361667.187478) can0 016#000000000200
(1655361667.188268) can0 007#00CAE803
(1655361667.188962) can0 001#0000000000000000
(1655361667.189138) can0 008#00000000
(1655361667.189296) can0 006#636A2F00
(1655361667.189467) can0 021#11030000
(1655361667.189594) can0 024#0000
(1655361667.189817) can0 028#0000
(1655361667.190027) can0 018#59FE73FA13C2
(1655361667.190284) can0 001#0000000000000000
(1655361667.190458) can0 006#00000000
(1655361667.190638) can0 002#00000000
(1655361667.192448) can0 017#EEFF0C00F6FF
(1655361667.193150) can0 029#0000
(1655361667.194942) can0 019#98F958027805
(1655361667.196469) can0 009#0000
(1655361667.197435) can0 018#73FE94FA18C2
(1655361667.198871) can0 008#00000000
(1655361667.199014) can0 007#00CAE803
(1655361667.199207) can0 006#636A2F00
(1655361667.199449) can0 001#0000000000000000
(1655361667.199618) can0 021#11030000
(1655361667.200161) can0 006#00000000
(1655361667.200343) can0 002#00000000
(1655361667.200602) can0 001#0000000000000000
(1655361667.202310) can0 017#E4FF1300F4FF
(1655361667.204742) can0 019#70F96402AF05
(1655361667.207153) can0 018#1EFEAEFA13C2
(1655361667.208855) can0 008#00000000
(1655361667.209121) can0 001#0000000000000000
(1655361667.209284) can0 006#636A2F00
(1655361667.209452) can0 021#11030000
(1655361667.210019) can0 007#00CAE803
(1655361667.210204) can0 006#00000000
(1655361667.210386) can0 002#00000000
(1655361667.210699) can0 001#0000000000000000
(1655361667.212003) can0 017#07000700D6FF
(1655361667.213255) can0 031#25015401730B
(1655361667.213455) can0 011#D908A00FBB08
(1655361667.214554) can0 019#70F96402AF05
(1655361667.216975) can0 018#44FE99FA9BC2
(1655361667.218846) can0 008#00000000
(1655361667.218974) can0 012#0000
(1655361667.219239) can0 001#0000000000000000
(1655361667.219408) can0 021#11030000
(1655361667.219573) can0 006#636A2F00
(1655361667.219703) can0 022#0000
(1655361667.220061) can0 007#00CAE803
(1655361667.220246) can0 006#00000000
(1655361667.220427) can0 002#00000000
(1655361667.220699) can0 001#0000000000000000
(1655361667.221197) can0 023#0000
(1655361667.221859) can0 017#F6FF1A00F9FF
(1655361667.224378) can0 019#7EF98A024B05
(1655361667.226749) can0 018#16FE5DFAF6C1
(1655361667.228841) can0 006#636A2F00
(1655361667.229012) can0 008#00000000
(1655361667.229272) can0 001#0000000000000000
(1655361667.229440) can0 021#11030000
(1655361667.230160) can0 006#00000000
(1655361667.230340) can0 002#00000000
(1655361667.230633) can0 001#0000000000000000
(1655361667.230751) can0 007#00CAE803
(1655361667.233815) can0 017#25001300E3FF
(1655361667.236209) can0 019#7EF98A024B05
(1655361667.238624) can0 018#22FEBFFA0BC2
(1655361667.238846) can0 008#00000000
(1655361667.239220) can0 001#0000000000000000
(1655361667.239386) can0 006#636A2F00
(1655361667.239551) can0 021#11030000
(1655361667.240151) can0 006#00000000
(1655361667.240330) can0 002#00000000
(1655361667.240588) can0 001#0000000000000000
(1655361667.240952) can0 007#00CAE803
(1655361667.243491) can0 017#0C000C000300
(1655361667.245929) can0 019#7EF98A024B05
(1655361667.248338) can0 018#73FE66FA53C2
(1655361667.248831) can0 006#636A2F00
(1655361667.249004) can0 008#00000000
(1655361667.249262) can0 001#0000000000000000
(1655361667.249430) can0 021#11030000
(1655361667.250143) can0 002#00000000
(1655361667.250319) can0 006#00000000
(1655361667.250457) can0 026#0000
(1655361667.250577) can0 003#00
(1655361667.250752) can0 008#00000000
(1655361667.251010) can0 001#0000000000000000
(1655361667.251184) can0 005#00000000
(1655361667.251443) can0 004#0000000000000000
(1655361667.251600) can0 007#00CAE803
(1655361667.253177) can0 017#FDFFEFFFFEFF
(1655361667.255598) can0 019#8BF94B024B06
(1655361667.258006) can0 018#8CFE6EFA60C2
(1655361667.258857) can0 008#00000000
(1655361667.259114) can0 001#0000000000000000
(1655361667.259226) can0 016#00
(1655361667.259425) can0 006#636A2F00
(1655361667.259510) can0 015#00
(1655361667.259680) can0 021#11030000
(1655361667.260156) can0 006#00000000
(1655361667.260354) can0 002#00000000
(1655361667.260594) can0 001#0000000000000000
(1655361667.261819) can0 007#00CAE803
(1655361667.262848) can0 017#F3FFFDFFF2FF
(1655361667.265292) can0 019#8BF94B024B06
(1655361667.267700) can0 018#22FE6EFA9FC2
(1655361667.268843) can0 008#00000000
(1655361667.269108) can0 001#0000000000000000
(1655361667.269269) can0 006#636A2F00
(1655361667.269439) can0 021#11030000
(1655361667.270155) can0 006#00000000
(1655361667.270334) can0 002#00000000
(1655361667.270592) can0 001#0000000000000000
(1655361667.272562) can0 017#F4FFE0FFD9FF
(1655361667.272875) can0 007#00CAE803
(1655361667.275089) can0 019#7EF90D02BA05
(1655361667.277535) can0 018#9DFE94FA24C2
(1655361667.278850) can0 008#00000000
(1655361667.279117) can0 001#0000000000000000
(1655361667.279278) can0 006#636A2F00
(1655361667.279446) can0 021#11030000
(1655361667.280164) can0 006#00000000
(1655361667.280343) can0 002#00000000
(1655361667.280602) can0 001#0000000000000000
(1655361667.280976) can0 027#0000
(1655361667.282541) can0 017#F0FF2C00FFFF
(1655361667.283369) can0 007#00CAE803
(1655361667.285069) can0 019#7EF90D02BA05
(1655361667.287518) can0 016#000000000200
(1655361667.288841) can0 008#00000000
(1655361667.289107) can0 001#0000000000000000
(1655361667.289270) can0 006#636A2F00
(1655361667.289438) can0 021#11030000
(1655361667.289983) can0 018#4DFEB2FA4AC2
(1655361667.290159) can0 006#00000000
(1655361667.290339) can0 002#00000000
(1655361667.290465) can0 024#0000
(1655361667.290732) can0 001#0000000000000000
(1655361667.290860) can0 028#0000
(1655361667.292507) can0 017#EEFFE9FFCBFF
(1655361667.293601) can0 007#00CAE803
(1655361667.293739) can0 029#0000
(1655361667.295039) can0 019#7EF90D02BA05
(1655361667.297490) can0 018#8CFEB6FA7DC2
(1655361667.298820) can0 021#11030000
(1655361667.298990) can0 008#00000000
(1655361667.299249) can0 001#0000000000000000
(1655361667.299410) can0 006#636A2F00
(1655361667.300269) can0 001#0000000000000000
(1655361667.300442) can0 006#00000000
(1655361667.300622) can0 002#00000000
(1655361667.302361) can0 017#18000500FDFF
(1655361667.303754) can0 007#00CAE803
(1655361667.304901) can0 019#A6F996026C05
(1655361667.307373) can0 018#A1FE8CFAB0C2
(1655361667.308822) can0 021#11030000
(1655361667.308991) can0 008#00000000
(1655361667.309249) can0 001#0000000000000000
(1655361667.309414) can0 006#636A2F00
(1655361667.310163) can0 006#00000000
(1655361667.310339) can0 002#00000000
(1655361667.310599) can0 001#0000000000000000
(1655361667.312170) can0 017#F3FF10000A00
(1655361667.313253) can0 011#D908A00FBB08
(1655361667.313448) can0 031#25015401730B
(1655361667.314653) can0 007#00CAE803
(1655361667.314863) can0 019#A6F996026C05
(1655361667.317207) can0 018#7BFE83FA9BC2
(1655361667.318853) can0 008#00000000
(1655361667.319112) can0 001#0000000000000000
(1655361667.319270) can0 006#636A2F00
(1655361667.319396) can0 012#0000
(1655361667.319578) can0 021#11030000
(1655361667.319708) can0 022#0000
(1655361667.320158) can0 006#00000000
(1655361667.320338) can0 002#00000000
(1655361667.320598) can0 001#0000000000000000
(1655361667.321398) can0 023#0000
(1655361667.322089) can0 017#0100FEFFF0FF
(1655361667.324527) can0 019#13F90D02BA05
(1655361667.324905) can0 007#00CAE803
(1655361667.327022) can0 018#48FEB2FA3EC2
(1655361667.328847) can0 008#00000000
(1655361667.329112) can0 001#0000000000000000
(1655361667.329271) can0 006#636A2F00
(1655361667.329441) can0 021#11030000
(1655361667.330164) can0 006#00000000
(1655361667.330343) can0 002#00000000
(1655361667.330601) can0 001#0000000000000000
(1655361667.331897) can0 017#FFFF0500D4FF
(1655361667.334344) can0 019#13F90D02BA05
(1655361667.335600) can0 007#00CAE803
(1655361667.336827) can0 018#73FEAAFA97C2
(1655361667.338838) can0 008#00000000
(1655361667.339103) can0 001#0000000000000000
(1655361667.339266) can0 006#636A2F00
(1655361667.339434) can0 021#11030000
(1655361667.340152) can0 006#00000000
(1655361667.340331) can0 002#00000000
(1655361667.340589) can0 001#0000000000000000
(1655361667.344099) can0 017#0500E3FFE5FF
(1655361667.346494) can0 019#13F90D02BA05
(1655361667.346713) can0 007#00CAE803
(1655361667.348855) can0 008#00000000
(1655361667.349065) can0 018#BBFE7FFA68C2
(1655361667.349213) can0 006#636A2F00
(1655361667.349382) can0 021#11030000
(1655361667.349640) can0 001#0000000000000000
(1655361667.350161) can0 006#00000000
(1655361667.350297) can0 026#0000
(1655361667.350479) can0 002#00000000
(1655361667.350596) can0 003#00
(1655361667.350773) can0 008#00000000
(1655361667.351031) can0 001#0000000000000000
(1655361667.351205) can0 005#00000000
(1655361667.351460) can0 004#0000000000000000
(1655361667.353889) can0 017#0A000A000D00
(1655361667.356329) can0 019#63F90D02BA05
(1655361667.357191) can0 007#00CAE803
(1655361667.358819) can0 018#37FE6AFA1CC2
(1655361667.358948) can0 009#0000
(1655361667.359134) can0 008#00000000
(1655361667.359523) can0 001#0000000000000000
(1655361667.359539) can0 006#636A2F00
(1655361667.359655) can0 015#00
(1655361667.359772) can0 016#00
(1655361667.360181) can0 006#00000000
(1655361667.360360) can0 002#00000000
(1655361667.360619) can0 001#0000000000000000
(1655361667.363614) can0 017#FBFF0500ECFF
(1655361667.366017) can0 019#63F90D02BA05
(1655361667.367619) can0 007#00CAE803
(1655361667.368465) can0 018#5EFE8CFA64C2
(1655361667.368901) can0 008#00000000
(1655361667.369163) can0 001#0000000000000000
(1655361667.369326) can0 006#636A2F00
(1655361667.369496) can0 021#11030000
(1655361667.370147) can0 006#00000000
(1655361667.370326) can0 002#00000000
(1655361667.370584) can0 001#0000000000000000
(1655361667.373306) can0 017#0100E0FF0A00
(1655361667.375696) can0 019#70F96402AF05
(1655361667.378103) can0 018#2FFE77FA81C2
(1655361667.378820) can0 021#11030000
(1655361667.378972) can0 007#00CAE803
(1655361667.379245) can0 001#0000000000000000
(1655361667.379428) can0 006#636A2F00
(1655361667.379580) can0 008#00000000
(1655361667.380152) can0 006#00000000
(1655361667.380330) can0 002#00000000
(1655361667.380590) can0 001#0000000000000000
(1655361667.381334) can0 027#0000
(1655361667.383073) can0 017#E5FF0C00FCFF
(1655361667.385533) can0 019#70F96402AF05
(1655361667.387947) can0 016#000000000200
(1655361667.388809) can0 021#11030000
(1655361667.388993) can0 008#00000000
(1655361667.389241) can0 001#0000000000000000
(1655361667.389403) can0 006#636A2F00
(1655361667.389559) can0 007#00CAE803
(1655361667.390261) can0 001#0000000000000000
(1655361667.390433) can0 006#00000000
(1655361667.390614) can0 002#00000000
(1655361667.390815) can0 018#22FEAEFA31C2
(1655361667.390940) can0 024#0000
(1655361667.391076) can0 028#0000
(1655361667.392946) can0 017#F8FFEAFFE4FF
(1655361667.394006) can0 029#0000
(1655361667.395471) can0 019#70F96402AF05
(1655361667.397898) can0 018#40FE7FFA18C2
(1655361667.398844) can0 008#00000000
(1655361667.399107) can0 001#0000000000000000
(1655361667.399274) can0 006#636A2F00
(1655361667.399437) can0 021#11030000
(1655361667.399919) can0 007#00CAE803
(1655361667.400155) can0 006#00000000
(1655361667.400429) can0 002#00000000
(1655361667.400705) can0 001#0000000000000000
(1655361667.402772) can0 017#E5FFEFFFE2FF
(1655361667.405216) can0 019#20F932029905
(1655361667.407615) can0 018#99FE7BFA64C2
(1655361667.408838) can0 008#00000000
(1655361667.409124) can0 001#0000000000000000
(1655361667.409263) can0 006#636A2F00
(1655361667.409433) can0 021#11030000
(1655361667.410150) can0 006#00000000
(1655361667.410329) can0 002#00000000
(1655361667.410588) can0 001#0000000000000000
(1655361667.410742) can0 007#00CAE803
(1655361667.412478) can0 017#FEFF0500EDFF
(1655361667.413246) can0 011#D908A00FBF08
(1655361667.413441) can0 031#25015401730B
(1655361667.415015) can0 019#20F932029905
(1655361667.417437) can0 018#6EFE77FA13C2
(1655361667.418946) can0 001#0000000000000000
(1655361667.419119) can0 008#00000000
(1655361667.419289) can0 006#636A2F00
(1655361667.419453) can0 021#11030000
(1655361667.419582) can0 012#0000
(1655361667.419722) can0 022#0000
(1655361667.420172) can0 006#00000000
(1655361667.420354) can0 002#00000000
(1655361667.420611) can0 001#0000000000000000
(1655361667.420826) can0 007#00CAE803
(1655361667.421982) can0 023#0000
(1655361667.422321) can0 017#F5FFFAFF0200
(1655361667.424821) can0 019#7EF98A02BA05
(1655361667.427251) can0 018#77FEB2FA57C2
(1655361667.428841) can0 008#00000000
(1655361667.429107) can0 001#0000000000000000
(1655361667.429267) can0 006#636A2F00
(1655361667.429437) can0 021#11030000
(1655361667.430149) can0 006#00000000
(1655361667.430327) can0 002#00000000
(1655361667.430586) can0 001#0000000000000000
(1655361667.430935) can0 007#00CAE803
(1655361667.432099) can0 017#0800F6FFE9FF
(1655361667.434519) can0 019#7EF98A02BA05
(1655361667.436922) can0 018#44FE48FA3EC2
(1655361667.438808) can0 021#11030000
(1655361667.438980) can0 008#00000000
(1655361667.439236) can0 001#0000000000000000
(1655361667.439400) can0 006#636A2F00
(1655361667.440141) can0 006#00000000
(1655361667.440328) can0 002#00000000
(1655361667.440577) can0 001#0000000000000000
(1655361667.440984) can0 007#00CAE803
(1655361667.444115) can0 017#0F000800F6FF
(1655361667.446508) can0 019#7EF98A02BA05
(1655361667.448831) can0 008#00000000
(1655361667.449030) can0 018#62FE9DFA2DC2
(1655361667.449191) can0 006#636A2F00
(1655361667.449449) can0 001#0000000000000000
(1655361667.449617) can0 021#11030000
(1655361667.450140) can0 006#00000000
(1655361667.450277) can0 026#0000
(1655361667.450458) can0 002#00000000
(1655361667.450578) can0 003#00
(1655361667.450752) can0 008#00000000
(1655361667.451011) can0 001#0000000000000000
(1655361667.451185) can0 005#00000000
(1655361667.451508) can0 004#0000000000000000
(1655361667.451597) can0 007#00CAE803
(1655361667.453771) can0 017#F7FFFAFFDEFF
(1655361667.456211) can0 019#10FA3202C505
(1655361667.458612) can0 018#48FE62FA97C2
(1655361667.458845) can0 008#00000000
(1655361667.459212) can0 001#0000000000000000
(1655361667.459325) can0 016#00
(1655361667.459503) can0 006#636A2F00
(1655361667.459609) can0 015#00
(1655361667.459777) can0 021#11030000
(1655361667.460200) can0 006#00000000
(1655361667.460380) can0 002#00000000
(1655361667.460638) can0 001#0000000000000000
(1655361667.461955) can0 007#00CAE803
(1655361667.463471) can0 017#0F00FAFFE6FF
(1655361667.465908) can0 019#10FA3202C505
(1655361667.468316) can0 018#59FE66FA4FC2
(1655361667.468821) can0 006#636A2F00
(1655361667.468993) can0 008#00000000
(1655361667.469248) can0 001#0000000000000000
(1655361667.469419) can0 021#11030000
(1655361667.470146) can0 006#00000000
(1655361667.470325) can0 002#00000000
(1655361667.470582) can0 001#0000000000000000
(1655361667.472387) can0 007#00CAE803
(1655361667.473192) can0 017#EAFFF4FFF4FF
(1655361667.475663) can0 019#2EF9DB018E05
(1655361667.478071) can0 018#5EFEC3FA60C2
(1655361667.478818) can0 006#636A2F00
(1655361667.478992) can0 008#00000000
(1655361667.479261) can0 001#0000000000000000
(1655361667.479431) can0 021#11030000
(1655361667.480150) can0 006#00000000
(1655361667.480329) can0 002#00000000
(1655361667.480586) can0 001#0000000000000000
(1655361667.482525) can0 007#00CAE803
(1655361667.482660) can0 027#0000
(1655361667.483071) can0 017#0500F9FFF9FF
(1655361667.485524) can0 019#2EF9DB018E05
(1655361667.487940) can0 016#000000000200
(1655361667.488818) can0 006#636A2F00
(1655361667.488989) can0 008#00000000
(1655361667.489254) can0 001#0000000000000000
(1655361667.489412) can0 021#11030000
(1655361667.490134) can0 006#00000000
(1655361667.490313) can0 002#00000000
(1655361667.490571) can0 001#0000000000000000
(1655361667.490769) can0 018#88FE88FA71C2
(1655361667.491565) can0 024#0000
(1655361667.491698) can0 028#0000
(1655361667.492770) can0 007#00CAE803
(1655361667.492985) can0 017#1E00FBFF0700
(1655361667.494996) can0 029#0000
(1655361667.495442) can0 019#48F9A3027805
(1655361667.497877) can0 018#51FE99FA9BC2
(1655361667.498827) can0 008#00000000
(1655361667.499094) can0 001#0000000000000000
(1655361667.499253) can0 006#636A2F00
(1655361667.499425) can0 021#11030000
(1655361667.500246) can0 001#0000000000000000
(1655361667.500432) can0 006#00000000
(1655361667.500604) can0 002#00000000
(1655361667.502758) can0 017#10000200F3FF
(1655361667.503954) can0 007#00CAE803
(1655361667.505316) can0 019#48F9A3027805
(1655361667.507782) can0 018#A5FE6EFA8AC2
(1655361667.508848) can0 008#00000000
(1655361667.509100) can0 001#0000000000000000
(1655361667.509260) can0 006#636A2F00
(1655361667.509429) can0 021#11030000
(1655361667.510152) can0 006#00000000
(1655361667.510325) can0 002#00000000
(1655361667.510586) can0 001#0000000000000000
(1655361667.512605) can0 017#0F000000F6FF
(1655361667.513269) can0 011#D908A00FBF08
(1655361667.513440) can0 031#25015401730B
(1655361667.514715) can0 007#00CAE803
(1655361667.515117) can0 019#48F9A3027805
(1655361667.517539) can0 018#44FE94FA68C2
(1655361667.518823) can0 008#00000000
(1655361667.519086) can0 001#0000000000000000
(1655361667.519248) can0 006#636A2F00
(1655361667.519419) can0 021#11030000
(1655361667.520140) can0 006#00000000
(1655361667.520322) can0 002#00000000
(1655361667.520578) can0 001#0000000000000000
(1655361667.520705) can0 012#0000
(1655361667.520845) can0 022#0000
(1655361667.522405) can0 017#FFFF0F00F0FF
(1655361667.522613) can0 023#0000
(1655361667.524918) can0 019#A6F900025605
(1655361667.525071) can0 007#00CAE803
(1655361667.527430) can0 018#62FE6EFA3EC2
(1655361667.528817) can0 006#636A2F00
(1655361667.528989) can0 008#00000000
(1655361667.529254) can0 001#0000000000000000
(1655361667.529415) can0 021#11030000
(1655361667.530145) can0 006#00000000
(1655361667.530323) can0 002#00000000
(1655361667.530582) can0 001#0000000000000000
(1655361667.532306) can0 017#E6FF1500E6FF
(1655361667.534769) can0 019#A6F900025605
(1655361667.535162) can0 007#00CAE803
(1655361667.537244) can0 018#0DFEC7FADAC2
(1655361667.538802) can0 021#11030000
(1655361667.538986) can0 008#00000000
(1655361667.539233) can0 001#0000000000000000
(1655361667.539394) can0 006#636A2F00
(1655361667.540138) can0 006#00000000
(1655361667.540318) can0 002#00000000
(1655361667.540576) can0 001#0000000000000000
(1655361667.542105) can0 017#10000D00E4FF
(1655361667.544550) can0 019#63F93F02A405
(1655361667.546298) can0 007#00CAE803
(1655361667.547029) can0 018#66FE7BFA2DC2
(1655361667.548813) can0 006#636A2F00
(1655361667.548994) can0 008#00000000
(1655361667.549249) can0 001#0000000000000000
(1655361667.549435) can0 021#11030000
(1655361667.550141) can0 006#00000000
(1655361667.550278) can0 026#0000
(1655361667.550476) can0 002#00000000
(1655361667.550577) can0 003#00
(1655361667.550750) can0 008#00000000
(1655361667.551014) can0 001#0000000000000000
(1655361667.551186) can0 005#00000000
(1655361667.551440) can0 004#0000000000000000
(1655361667.551969) can0 017#FDFFF7FFF5FF
(1655361667.554438) can0 019#63F93F02A405
(1655361667.556536) can0 007#00CAE803
(1655361667.556842) can0 018#88FECBFA02C2
(1655361667.558834) can0 008#00000000
(1655361667.559123) can0 001#0000000000000000
(1655361667.559207) can0 016#00
(1655361667.559411) can0 006#636A2F00
(1655361667.559489) can0 015#00
(1655361667.559662) can0 021#11030000
(1655361667.560252) can0 001#0000000000000000
(1655361667.560424) can0 006#00000000
(1655361667.560605) can0 002#00000000
(1655361667.564046) can0 017#1000E2FFEEFF
(1655361667.566437) can0 019#63F93F02A405
(1655361667.566802) can0 007#00CAE803
(1655361667.568826) can0 008#00000000
(1655361667.569022) can0 018#7BFEA1FA4AC2
(1655361667.569278) can0 001#0000000000000000
(1655361667.569448) can0 021#11030000
(1655361667.569611) can0 006#636A2F00
(1655361667.570242) can0 001#0000000000000000
(1655361667.570414) can0 006#00000000
(1655361667.570594) can0 002#00000000
(1655361667.573744) can0 017#0C0002000400
(1655361667.576132) can0 019#3BF932029905
(1655361667.577909) can0 007#00CAE803
(1655361667.578618) can0 018#A5FE7FFA75C2
(1655361667.578830) can0 008#00000000
(1655361667.579207) can0 001#0000000000000000
(1655361667.579367) can0 006#636A2F00
(1655361667.579535) can0 021#11030000
(1655361667.580140) can0 006#00000000
(1655361667.580320) can0 002#00000000
(1655361667.580578) can0 001#0000000000000000
(1655361667.583572) can0 017#05001100FBFF
(1655361667.583733) can0 027#0000
(1655361667.586031) can0 019#3BF932029905
(1655361667.588474) can0 016#000000000200
(1655361667.588610) can0 007#00CAE803
(1655361667.588879) can0 008#00000000
(1655361667.589259) can0 001#0000000000000000
(1655361667.589418) can0 006#636A2F00
(1655361667.589588) can0 021#11030000
(1655361667.590128) can0 006#00000000
(1655361667.590308) can0 002#00000000
(1655361667.590566) can0 001#0000000000000000
(1655361667.590921) can0 018#95FEC7FA2DC2
(1655361667.591939) can0 024#0000
(1655361667.592074) can0 028#0000
(1655361667.593413) can0 017#12000000EBFF
(1655361667.595317) can0 029#0000
(1655361667.595885) can0 019#98F9DB01A405
(1655361667.598309) can0 018#66FE83FA57C2
(1655361667.598686) can0 007#00CAE803
(1655361667.598869) can0 021#11030000
(1655361667.599042) can0 008#00000000
(1655361667.599330) can0 001#0000000000000000
(1655361667.599491) can0 006#636A2F00
(1655361667.600153) can0 006#00000000
(1655361667.600324) can0 002#00000000
(1655361667.600581) can0 001#0000000000000000
(1655361667.603206) can0 017#EBFF0E00F1FF
(1655361667.605686) can0 019#98F9DB01A405
(1655361667.608095) can0 018#99FE77FA1CC2
(1655361667.608831) can0 008#00000000
(1655361667.608986) can0 007#00CAE803
(1655361667.609165) can0 006#636A2F00
(1655361667.609331) can0 021#11030000
(1655361667.609589) can0 001#0000000000000000
(1655361667.610145) can0 006#00000000
(1655361667.610324) can0 002#00000000
(1655361667.610581) can0 001#0000000000000000
(1655361667.612944) can0 017#09000100F6FF
(1655361667.613244) can0 011#DE0AA00FBF08
(1655361667.613502) can0 031#20015401730B
(1655361667.615483) can0 019#98F9DB01A405
(1655361667.617909) can0 018#7FFEF2FA1CC2
(1655361667.618824) can0 008#00000000
(1655361667.619088) can0 001#0000000000000000
(1655361667.619265) can0 006#636A2F00
(1655361667.619406) can0 007#00CAE803
(1655361667.619589) can0 021#11030000
(1655361667.620136) can0 006#00000000
(1655361667.620316) can0 002#00000000
(1655361667.620573) can0 001#0000000000000000
(1655361667.621282) can0 012#0000
(1655361667.621404) can0 022#0000
(1655361667.622768) can0 017#0100FAFFF9FF
(1655361667.623655) can0 023#0000
(1655361667.625251) can0 019#8BF90002DC05
(1655361667.627672) can0 018#88FE83FA92C2
(1655361667.628939) can0 001#0000000000000000
(1655361667.629109) can0 008#00000000
(1655361667.629273) can0 006#636A2F00
(1655361667.629442) can0 021#11030000
(1655361667.629629) can0 007#00CAE803
(1655361667.630142) can0 006#00000000
(1655361667.630318) can0 002#00000000
(1655361667.630580) can0 001#0000000000000000
(1655361667.632583) can0 017#0A000900F8FF
(1655361667.635028) can0 019#8BF90002DC05
(1655361667.637408) can0 018#88FE77FA75C2
(1655361667.638814) can0 008#00000000
(1655361667.639080) can0 001#0000000000000000
(1655361667.639241) can0 006#636A2F00
(1655361667.639410) can0 021#11030000
(1655361667.639827) can0 007#00CAE803
(1655361667.640132) can0 006#00000000
(1655361667.640403) can0 002#00000000
(1655361667.640669) can0 001#0000000000000000
(1655361667.642239) can0 017#FCFFE4FFEAFF
(1655361667.644676) can0 019#C0F93202C505
(1655361667.647061) can0 018#88FED8FA3AC2
(1655361667.648819) can0 008#00000000
(1655361667.649080) can0 001#0000000000000000
(1655361667.649241) can0 006#636A2F00
(1655361667.649411) can0 021#11030000
(1655361667.650164) can0 006#00000000
(1655361667.650263) can0 026#0000
(1655361667.650453) can0 002#00000000
(1655361667.650561) can0 003#00
(1655361667.650744) can0 008#00000000
(1655361667.650994) can0 001#0000000000000000
(1655361667.651169) can0 005#00000000
(1655361667.651432) can0 004#0000000000000000
(1655361667.651580) can0 007#00CAE803
(1655361667.651907) can0 017#FBFFE2FFD3FF
(1655361667.654426) can0 019#C0F93202C505
(1655361667.656856) can0 018#3CFE99FA3AC2
(1655361667.658790) can0 021#11030000
(1655361667.658963) can0 008#00000000
(1655361667.659225) can0 001#0000000000000000
(1655361667.659339) can0 016#00
(1655361667.659508) can0 006#636A2F00
(1655361667.659653) can0 015#00
(1655361667.660143) can0 006#00000000
(1655361667.660320) can0 002#00000000
